Freq.	V(n005)
1.00000000000000e+03	(2.32585415721254e+01dB,1.79985435328312e+02°)
1.00230523807790e+03	(2.32585415726734e+01dB,1.79985401753275e+02°)
1.00461579027840e+03	(2.32585415732240e+01dB,1.79985368100840e+02°)
1.00693166885180e+03	(2.32585415737771e+01dB,1.79985334370828e+02°)
1.00925288607668e+03	(2.32585415743327e+01dB,1.79985300563060e+02°)
1.01157945425990e+03	(2.32585415748909e+01dB,1.79985266677357e+02°)
1.01391138573668e+03	(2.32585415754517e+01dB,1.79985232713540e+02°)
1.01624869287070e+03	(2.32585415760150e+01dB,1.79985198671428e+02°)
1.01859138805412e+03	(2.32585415765810e+01dB,1.79985164550840e+02°)
1.02093948370768e+03	(2.32585415771495e+01dB,1.79985130351597e+02°)
1.02329299228075e+03	(2.32585415777207e+01dB,1.79985096073516e+02°)
1.02565192625141e+03	(2.32585415782946e+01dB,1.79985061716416e+02°)
1.02801629812647e+03	(2.32585415788710e+01dB,1.79985027280115e+02°)
1.03038612044162e+03	(2.32585415794502e+01dB,1.79984992764430e+02°)
1.03276140576140e+03	(2.32585415800320e+01dB,1.79984958169178e+02°)
1.03514216667934e+03	(2.32585415806165e+01dB,1.79984923494175e+02°)
1.03752841581801e+03	(2.32585415812037e+01dB,1.79984888739239e+02°)
1.03992016582906e+03	(2.32585415817936e+01dB,1.79984853904184e+02°)
1.04231742939330e+03	(2.32585415823862e+01dB,1.79984818988826e+02°)
1.04472021922080e+03	(2.32585415829816e+01dB,1.79984783992980e+02°)
1.04712854805090e+03	(2.32585415835797e+01dB,1.79984748916460e+02°)
1.04954242865232e+03	(2.32585415841805e+01dB,1.79984713759080e+02°)
1.05196187382322e+03	(2.32585415847842e+01dB,1.79984678520654e+02°)
1.05438689639126e+03	(2.32585415853907e+01dB,1.79984643200996e+02°)
1.05681750921366e+03	(2.32585415859998e+01dB,1.79984607799916e+02°)
1.05925372517729e+03	(2.32585415866119e+01dB,1.79984572317229e+02°)
1.06169555719872e+03	(2.32585415872268e+01dB,1.79984536752746e+02°)
1.06414301822431e+03	(2.32585415878445e+01dB,1.79984501106279e+02°)
1.06659612123026e+03	(2.32585415884650e+01dB,1.79984465377637e+02°)
1.06905487922266e+03	(2.32585415890885e+01dB,1.79984429566633e+02°)
1.07151930523761e+03	(2.32585415897147e+01dB,1.79984393673076e+02°)
1.07398941234124e+03	(2.32585415903440e+01dB,1.79984357696776e+02°)
1.07646521362983e+03	(2.32585415909760e+01dB,1.79984321637541e+02°)
1.07894672222983e+03	(2.32585415916111e+01dB,1.79984285495182e+02°)
1.08143395129794e+03	(2.32585415922490e+01dB,1.79984249269506e+02°)
1.08392691402120e+03	(2.32585415928899e+01dB,1.79984212960320e+02°)
1.08642562361706e+03	(2.32585415935337e+01dB,1.79984176567434e+02°)
1.08893009333343e+03	(2.32585415941806e+01dB,1.79984140090654e+02°)
1.09144033644875e+03	(2.32585415948304e+01dB,1.79984103529786e+02°)
1.09395636627209e+03	(2.32585415954832e+01dB,1.79984066884636e+02°)
1.09647819614318e+03	(2.32585415961390e+01dB,1.79984030155010e+02°)
1.09900583943252e+03	(2.32585415967978e+01dB,1.79983993340714e+02°)
1.10153930954141e+03	(2.32585415974597e+01dB,1.79983956441552e+02°)
1.10407861990207e+03	(2.32585415981246e+01dB,1.79983919457329e+02°)
1.10662378397766e+03	(2.32585415987927e+01dB,1.79983882387848e+02°)
1.10917481526240e+03	(2.32585415994638e+01dB,1.79983845232913e+02°)
1.11173172728159e+03	(2.32585416001379e+01dB,1.79983807992328e+02°)
1.11429453359173e+03	(2.32585416008152e+01dB,1.79983770665894e+02°)
1.11686324778056e+03	(2.32585416014957e+01dB,1.79983733253413e+02°)
1.11943788346715e+03	(2.32585416021792e+01dB,1.79983695754688e+02°)
1.12201845430196e+03	(2.32585416028660e+01dB,1.79983658169520e+02°)
1.12460497396692e+03	(2.32585416035559e+01dB,1.79983620497708e+02°)
1.12719745617551e+03	(2.32585416042489e+01dB,1.79983582739054e+02°)
1.12979591467279e+03	(2.32585416049452e+01dB,1.79983544893358e+02°)
1.13240036323555e+03	(2.32585416056447e+01dB,1.79983506960418e+02°)
1.13501081567231e+03	(2.32585416063474e+01dB,1.79983468940033e+02°)
1.13762728582343e+03	(2.32585416070534e+01dB,1.79983430832003e+02°)
1.14024978756117e+03	(2.32585416077626e+01dB,1.79983392636124e+02°)
1.14287833478977e+03	(2.32585416084751e+01dB,1.79983354352195e+02°)
1.14551294144553e+03	(2.32585416091909e+01dB,1.79983315980013e+02°)
1.14815362149688e+03	(2.32585416099100e+01dB,1.79983277519373e+02°)
1.15080038894443e+03	(2.32585416106324e+01dB,1.79983238970072e+02°)
1.15345325782109e+03	(2.32585416113581e+01dB,1.79983200331906e+02°)
1.15611224219210e+03	(2.32585416120872e+01dB,1.79983161604670e+02°)
1.15877735615512e+03	(2.32585416128197e+01dB,1.79983122788158e+02°)
1.16144861384034e+03	(2.32585416135555e+01dB,1.79983083882165e+02°)
1.16412602941049e+03	(2.32585416142948e+01dB,1.79983044886485e+02°)
1.16680961706096e+03	(2.32585416150374e+01dB,1.79983005800910e+02°)
1.16949939101987e+03	(2.32585416157835e+01dB,1.79982966625233e+02°)
1.17219536554813e+03	(2.32585416165330e+01dB,1.79982927359247e+02°)
1.17489755493953e+03	(2.32585416172860e+01dB,1.79982888002744e+02°)
1.17760597352080e+03	(2.32585416180425e+01dB,1.79982848555515e+02°)
1.18032063565173e+03	(2.32585416188024e+01dB,1.79982809017350e+02°)
1.18304155572516e+03	(2.32585416195658e+01dB,1.79982769388041e+02°)
1.18576874816716e+03	(2.32585416203328e+01dB,1.79982729667376e+02°)
1.18850222743701e+03	(2.32585416211033e+01dB,1.79982689855146e+02°)
1.19124200802737e+03	(2.32585416218774e+01dB,1.79982649951139e+02°)
1.19398810446427e+03	(2.32585416226551e+01dB,1.79982609955144e+02°)
1.19674053130724e+03	(2.32585416234363e+01dB,1.79982569866949e+02°)
1.19949930314937e+03	(2.32585416242211e+01dB,1.79982529686341e+02°)
1.20226443461741e+03	(2.32585416250096e+01dB,1.79982489413106e+02°)
1.20503594037179e+03	(2.32585416258017e+01dB,1.79982449047033e+02°)
1.20781383510678e+03	(2.32585416265975e+01dB,1.79982408587906e+02°)
1.21059813355048e+03	(2.32585416273969e+01dB,1.79982368035511e+02°)
1.21338885046497e+03	(2.32585416282000e+01dB,1.79982327389633e+02°)
1.21618600064636e+03	(2.32585416290068e+01dB,1.79982286650057e+02°)
1.21898959892486e+03	(2.32585416298174e+01dB,1.79982245816566e+02°)
1.22179966016487e+03	(2.32585416306317e+01dB,1.79982204888945e+02°)
1.22461619926504e+03	(2.32585416314497e+01dB,1.79982163866976e+02°)
1.22743923115840e+03	(2.32585416322716e+01dB,1.79982122750441e+02°)
1.23026877081238e+03	(2.32585416330972e+01dB,1.79982081539122e+02°)
1.23310483322890e+03	(2.32585416339266e+01dB,1.79982040232802e+02°)
1.23594743344450e+03	(2.32585416347599e+01dB,1.79981998831261e+02°)
1.23879658653036e+03	(2.32585416355970e+01dB,1.79981957334279e+02°)
1.24165230759241e+03	(2.32585416364380e+01dB,1.79981915741637e+02°)
1.24451461177138e+03	(2.32585416372828e+01dB,1.79981874053114e+02°)
1.24738351424294e+03	(2.32585416381316e+01dB,1.79981832268489e+02°)
1.25025903021771e+03	(2.32585416389842e+01dB,1.79981790387540e+02°)
1.25314117494141e+03	(2.32585416398409e+01dB,1.79981748410046e+02°)
1.25602996369487e+03	(2.32585416407014e+01dB,1.79981706335785e+02°)
1.25892541179416e+03	(2.32585416415659e+01dB,1.79981664164531e+02°)
1.26182753459066e+03	(2.32585416424345e+01dB,1.79981621896063e+02°)
1.26473634747115e+03	(2.32585416433070e+01dB,1.79981579530156e+02°)
1.26765186585784e+03	(2.32585416441836e+01dB,1.79981537066585e+02°)
1.27057410520854e+03	(2.32585416450642e+01dB,1.79981494505126e+02°)
1.27350308101666e+03	(2.32585416459489e+01dB,1.79981451845552e+02°)
1.27643880881134e+03	(2.32585416468376e+01dB,1.79981409087638e+02°)
1.27938130415752e+03	(2.32585416477304e+01dB,1.79981366231156e+02°)
1.28233058265601e+03	(2.32585416486275e+01dB,1.79981323275881e+02°)
1.28528665994361e+03	(2.32585416495286e+01dB,1.79981280221583e+02°)
1.28824955169313e+03	(2.32585416504339e+01dB,1.79981237068036e+02°)
1.29121927361353e+03	(2.32585416513433e+01dB,1.79981193815008e+02°)
1.29419584144998e+03	(2.32585416522570e+01dB,1.79981150462271e+02°)
1.29717927098395e+03	(2.32585416531749e+01dB,1.79981107009597e+02°)
1.30016957803328e+03	(2.32585416540969e+01dB,1.79981063456754e+02°)
1.30316677845229e+03	(2.32585416550233e+01dB,1.79981019803511e+02°)
1.30617088813183e+03	(2.32585416559540e+01dB,1.79980976049637e+02°)
1.30918192299940e+03	(2.32585416568889e+01dB,1.79980932194900e+02°)
1.31219989901920e+03	(2.32585416578282e+01dB,1.79980888239068e+02°)
1.31522483219223e+03	(2.32585416587717e+01dB,1.79980844181906e+02°)
1.31825673855640e+03	(2.32585416597197e+01dB,1.79980800023183e+02°)
1.32129563418657e+03	(2.32585416606720e+01dB,1.79980755762663e+02°)
1.32434153519466e+03	(2.32585416616287e+01dB,1.79980711400111e+02°)
1.32739445772973e+03	(2.32585416625898e+01dB,1.79980666935294e+02°)
1.33045441797808e+03	(2.32585416635554e+01dB,1.79980622367975e+02°)
1.33352143216332e+03	(2.32585416645255e+01dB,1.79980577697917e+02°)
1.33659551654643e+03	(2.32585416655000e+01dB,1.79980532924884e+02°)
1.33967668742593e+03	(2.32585416664789e+01dB,1.79980488048639e+02°)
1.34276496113786e+03	(2.32585416674624e+01dB,1.79980443068943e+02°)
1.34586035405594e+03	(2.32585416684505e+01dB,1.79980397985558e+02°)
1.34896288259164e+03	(2.32585416694431e+01dB,1.79980352798246e+02°)
1.35207256319427e+03	(2.32585416704404e+01dB,1.79980307506766e+02°)
1.35518941235103e+03	(2.32585416714422e+01dB,1.79980262110878e+02°)
1.35831344658715e+03	(2.32585416724486e+01dB,1.79980216610341e+02°)
1.36144468246594e+03	(2.32585416734596e+01dB,1.79980171004916e+02°)
1.36458313658892e+03	(2.32585416744754e+01dB,1.79980125294359e+02°)
1.36772882559584e+03	(2.32585416754958e+01dB,1.79980079478427e+02°)
1.37088176616484e+03	(2.32585416765209e+01dB,1.79980033556880e+02°)
1.37404197501251e+03	(2.32585416775508e+01dB,1.79979987529472e+02°)
1.37720946889394e+03	(2.32585416785854e+01dB,1.79979941395961e+02°)
1.38038426460288e+03	(2.32585416796248e+01dB,1.79979895156100e+02°)
1.38356637897177e+03	(2.32585416806690e+01dB,1.79979848809646e+02°)
1.38675582887188e+03	(2.32585416817181e+01dB,1.79979802356352e+02°)
1.38995263121334e+03	(2.32585416827719e+01dB,1.79979755795972e+02°)
1.39315680294529e+03	(2.32585416838306e+01dB,1.79979709128259e+02°)
1.39636836105593e+03	(2.32585416848942e+01dB,1.79979662352965e+02°)
1.39958732257261e+03	(2.32585416859628e+01dB,1.79979615469844e+02°)
1.40281370456195e+03	(2.32585416870362e+01dB,1.79979568478647e+02°)
1.40604752412990e+03	(2.32585416881146e+01dB,1.79979521379122e+02°)
1.40928879842186e+03	(2.32585416891980e+01dB,1.79979474171023e+02°)
1.41253754462274e+03	(2.32585416902864e+01dB,1.79979426854098e+02°)
1.41579377995707e+03	(2.32585416913798e+01dB,1.79979379428096e+02°)
1.41905752168908e+03	(2.32585416924783e+01dB,1.79979331892765e+02°)
1.42232878712281e+03	(2.32585416935818e+01dB,1.79979284247854e+02°)
1.42560759360218e+03	(2.32585416946904e+01dB,1.79979236493110e+02°)
1.42889395851109e+03	(2.32585416958041e+01dB,1.79979188628281e+02°)
1.43218789927353e+03	(2.32585416969230e+01dB,1.79979140653111e+02°)
1.43548943335364e+03	(2.32585416980470e+01dB,1.79979092567347e+02°)
1.43879857825583e+03	(2.32585416991763e+01dB,1.79979044370734e+02°)
1.44211535152486e+03	(2.32585417003107e+01dB,1.79978996063017e+02°)
1.44543977074592e+03	(2.32585417014504e+01dB,1.79978947643938e+02°)
1.44877185354475e+03	(2.32585417025953e+01dB,1.79978899113242e+02°)
1.45211161758773e+03	(2.32585417037456e+01dB,1.79978850470671e+02°)
1.45545908058195e+03	(2.32585417049011e+01dB,1.79978801715968e+02°)
1.45881426027534e+03	(2.32585417060620e+01dB,1.79978752848873e+02°)
1.46217717445671e+03	(2.32585417072282e+01dB,1.79978703869128e+02°)
1.46554784095590e+03	(2.32585417083998e+01dB,1.79978654776473e+02°)
1.46892627764385e+03	(2.32585417095768e+01dB,1.79978605570647e+02°)
1.47231250243271e+03	(2.32585417107592e+01dB,1.79978556251391e+02°)
1.47570653327588e+03	(2.32585417119472e+01dB,1.79978506818442e+02°)
1.47910838816819e+03	(2.32585417131406e+01dB,1.79978457271538e+02°)
1.48251808514594e+03	(2.32585417143395e+01dB,1.79978407610417e+02°)
1.48593564228699e+03	(2.32585417155439e+01dB,1.79978357834815e+02°)
1.48936107771090e+03	(2.32585417167539e+01dB,1.79978307944468e+02°)
1.49279440957898e+03	(2.32585417179694e+01dB,1.79978257939112e+02°)
1.49623565609442e+03	(2.32585417191906e+01dB,1.79978207818482e+02°)
1.49968483550236e+03	(2.32585417204174e+01dB,1.79978157582311e+02°)
1.50314196609001e+03	(2.32585417216499e+01dB,1.79978107230335e+02°)
1.50660706618673e+03	(2.32585417228881e+01dB,1.79978056762285e+02°)
1.51008015416413e+03	(2.32585417241320e+01dB,1.79978006177895e+02°)
1.51356124843619e+03	(2.32585417253817e+01dB,1.79977955476895e+02°)
1.51705036745932e+03	(2.32585417266370e+01dB,1.79977904659017e+02°)
1.52054752973248e+03	(2.32585417278982e+01dB,1.79977853723992e+02°)
1.52405275379728e+03	(2.32585417291653e+01dB,1.79977802671550e+02°)
1.52756605823806e+03	(2.32585417304381e+01dB,1.79977751501419e+02°)
1.53108746168201e+03	(2.32585417317169e+01dB,1.79977700213329e+02°)
1.53461698279928e+03	(2.32585417330015e+01dB,1.79977648807008e+02°)
1.53815464030302e+03	(2.32585417342921e+01dB,1.79977597282184e+02°)
1.54170045294954e+03	(2.32585417355886e+01dB,1.79977545638582e+02°)
1.54525443953840e+03	(2.32585417368911e+01dB,1.79977493875928e+02°)
1.54881661891247e+03	(2.32585417381997e+01dB,1.79977441993951e+02°)
1.55238700995807e+03	(2.32585417395142e+01dB,1.79977389992372e+02°)
1.55596563160506e+03	(2.32585417408349e+01dB,1.79977337870918e+02°)
1.55955250282694e+03	(2.32585417421616e+01dB,1.79977285629311e+02°)
1.56314764264094e+03	(2.32585417434944e+01dB,1.79977233267274e+02°)
1.56675107010813e+03	(2.32585417448334e+01dB,1.79977180784531e+02°)
1.57036280433354e+03	(2.32585417461786e+01dB,1.79977128180803e+02°)
1.57398286446620e+03	(2.32585417475300e+01dB,1.79977075455810e+02°)
1.57761126969933e+03	(2.32585417488877e+01dB,1.79977022609274e+02°)
1.58124803927037e+03	(2.32585417502515e+01dB,1.79976969640914e+02°)
1.58489319246110e+03	(2.32585417516217e+01dB,1.79976916550449e+02°)
1.58854674859776e+03	(2.32585417529983e+01dB,1.79976863337598e+02°)
1.59220872705115e+03	(2.32585417543811e+01dB,1.79976810002079e+02°)
1.59587914723672e+03	(2.32585417557704e+01dB,1.79976756543608e+02°)
1.59955802861465e+03	(2.32585417571660e+01dB,1.79976702961903e+02°)
1.60324539069002e+03	(2.32585417585682e+01dB,1.79976649256680e+02°)
1.60694125301286e+03	(2.32585417599768e+01dB,1.79976595427653e+02°)
1.61064563517825e+03	(2.32585417613918e+01dB,1.79976541474537e+02°)
1.61435855682647e+03	(2.32585417628135e+01dB,1.79976487397047e+02°)
1.61808003764305e+03	(2.32585417642416e+01dB,1.79976433194894e+02°)
1.62181009735891e+03	(2.32585417656764e+01dB,1.79976378867793e+02°)
1.62554875575047e+03	(2.32585417671178e+01dB,1.79976324415456e+02°)
1.62929603263970e+03	(2.32585417685658e+01dB,1.79976269837592e+02°)
1.63305194789432e+03	(2.32585417700206e+01dB,1.79976215133914e+02°)
1.63681652142779e+03	(2.32585417714820e+01dB,1.79976160304130e+02°)
1.64058977319952e+03	(2.32585417729502e+01dB,1.79976105347951e+02°)
1.64437172321491e+03	(2.32585417744252e+01dB,1.79976050265084e+02°)
1.64816239152549e+03	(2.32585417759070e+01dB,1.79975995055239e+02°)
1.65196179822900e+03	(2.32585417773956e+01dB,1.79975939718121e+02°)
1.65576996346951e+03	(2.32585417788910e+01dB,1.79975884253438e+02°)
1.65958690743754e+03	(2.32585417803935e+01dB,1.79975828660897e+02°)
1.66341265037015e+03	(2.32585417819028e+01dB,1.79975772940201e+02°)
1.66724721255104e+03	(2.32585417834191e+01dB,1.79975717091055e+02°)
1.67109061431069e+03	(2.32585417849423e+01dB,1.79975661113163e+02°)
1.67494287602642e+03	(2.32585417864727e+01dB,1.79975605006230e+02°)
1.67880401812254e+03	(2.32585417880100e+01dB,1.79975548769956e+02°)
1.68267406107045e+03	(2.32585417895545e+01dB,1.79975492404045e+02°)
1.68655302538872e+03	(2.32585417911062e+01dB,1.79975435908197e+02°)
1.69044093164324e+03	(2.32585417926649e+01dB,1.79975379282113e+02°)
1.69433780044731e+03	(2.32585417942309e+01dB,1.79975322525491e+02°)
1.69824365246172e+03	(2.32585417958041e+01dB,1.79975265638032e+02°)
1.70215850839493e+03	(2.32585417973846e+01dB,1.79975208619434e+02°)
1.70608238900310e+03	(2.32585417989723e+01dB,1.79975151469394e+02°)
1.71001531509027e+03	(2.32585418005674e+01dB,1.79975094187610e+02°)
1.71395730750840e+03	(2.32585418021698e+01dB,1.79975036773777e+02°)
1.71790838715757e+03	(2.32585418037796e+01dB,1.79974979227592e+02°)
1.72186857498598e+03	(2.32585418053969e+01dB,1.79974921548750e+02°)
1.72583789199018e+03	(2.32585418070216e+01dB,1.79974863736944e+02°)
1.72981635921508e+03	(2.32585418086539e+01dB,1.79974805791868e+02°)
1.73380399775412e+03	(2.32585418102936e+01dB,1.79974747713214e+02°)
1.73780082874935e+03	(2.32585418119410e+01dB,1.79974689500676e+02°)
1.74180687339159e+03	(2.32585418135960e+01dB,1.79974631153944e+02°)
1.74582215292048e+03	(2.32585418152585e+01dB,1.79974572672708e+02°)
1.74984668862463e+03	(2.32585418169288e+01dB,1.79974514056659e+02°)
1.75388050184174e+03	(2.32585418186067e+01dB,1.79974455305487e+02°)
1.75792361395867e+03	(2.32585418202924e+01dB,1.79974396418878e+02°)
1.76197604641161e+03	(2.32585418219859e+01dB,1.79974337396522e+02°)
1.76603782068614e+03	(2.32585418236872e+01dB,1.79974278238106e+02°)
1.77010895831740e+03	(2.32585418253964e+01dB,1.79974218943316e+02°)
1.77418948089014e+03	(2.32585418271134e+01dB,1.79974159511836e+02°)
1.77827941003890e+03	(2.32585418288384e+01dB,1.79974099943353e+02°)
1.78237876744807e+03	(2.32585418305713e+01dB,1.79974040237550e+02°)
1.78648757485203e+03	(2.32585418323123e+01dB,1.79973980394112e+02°)
1.79060585403527e+03	(2.32585418340612e+01dB,1.79973920412719e+02°)
1.79473362683250e+03	(2.32585418358183e+01dB,1.79973860293056e+02°)
1.79887091512876e+03	(2.32585418375834e+01dB,1.79973800034801e+02°)
1.80301774085954e+03	(2.32585418393567e+01dB,1.79973739637638e+02°)
1.80717412601090e+03	(2.32585418411382e+01dB,1.79973679101245e+02°)
1.81134009261958e+03	(2.32585418429279e+01dB,1.79973618425301e+02°)
1.81551566277311e+03	(2.32585418447259e+01dB,1.79973557609484e+02°)
1.81970085860996e+03	(2.32585418465322e+01dB,1.79973496653472e+02°)
1.82389570231961e+03	(2.32585418483468e+01dB,1.79973435556942e+02°)
1.82810021614272e+03	(2.32585418501698e+01dB,1.79973374319570e+02°)
1.83231442237119e+03	(2.32585418520012e+01dB,1.79973312941032e+02°)
1.83653834334832e+03	(2.32585418538410e+01dB,1.79973251421001e+02°)
1.84077200146893e+03	(2.32585418556893e+01dB,1.79973189759151e+02°)
1.84501541917945e+03	(2.32585418575462e+01dB,1.79973127955157e+02°)
1.84926861897805e+03	(2.32585418594116e+01dB,1.79973066008689e+02°)
1.85353162341478e+03	(2.32585418612857e+01dB,1.79973003919420e+02°)
1.85780445509167e+03	(2.32585418631684e+01dB,1.79972941687020e+02°)
1.86208713666284e+03	(2.32585418650598e+01dB,1.79972879311160e+02°)
1.86637969083464e+03	(2.32585418669600e+01dB,1.79972816791509e+02°)
1.87068214036577e+03	(2.32585418688688e+01dB,1.79972754127735e+02°)
1.87499450806739e+03	(2.32585418707865e+01dB,1.79972691319506e+02°)
1.87931681680324e+03	(2.32585418727131e+01dB,1.79972628366489e+02°)
1.88364908948977e+03	(2.32585418746485e+01dB,1.79972565268349e+02°)
1.88799134909627e+03	(2.32585418765929e+01dB,1.79972502024755e+02°)
1.89234361864495e+03	(2.32585418785463e+01dB,1.79972438635368e+02°)
1.89670592121112e+03	(2.32585418805087e+01dB,1.79972375099854e+02°)
1.90107827992327e+03	(2.32585418824801e+01dB,1.79972311417875e+02°)
1.90546071796322e+03	(2.32585418844607e+01dB,1.79972247589094e+02°)
1.90985325856621e+03	(2.32585418864503e+01dB,1.79972183613172e+02°)
1.91425592502106e+03	(2.32585418884492e+01dB,1.79972119489771e+02°)
1.91866874067026e+03	(2.32585418904573e+01dB,1.79972055218550e+02°)
1.92309172891013e+03	(2.32585418924746e+01dB,1.79971990799168e+02°)
1.92752491319091e+03	(2.32585418945013e+01dB,1.79971926231285e+02°)
1.93196831701689e+03	(2.32585418965373e+01dB,1.79971861514556e+02°)
1.93642196394658e+03	(2.32585418985827e+01dB,1.79971796648641e+02°)
1.94088587759275e+03	(2.32585419006376e+01dB,1.79971731633194e+02°)
1.94536008162263e+03	(2.32585419027020e+01dB,1.79971666467871e+02°)
1.94984459975801e+03	(2.32585419047758e+01dB,1.79971601152326e+02°)
1.95433945577536e+03	(2.32585419068593e+01dB,1.79971535686213e+02°)
1.95884467350596e+03	(2.32585419089523e+01dB,1.79971470069185e+02°)
